Title: a berkeley spice3 compatible circuit
Date: Fri Apr  4 03:40:15  2025
Plotname: Transient Analysis
Flags: real
No. Variables: 8
No. Points: 208     
Variables:
	0	time	time
	1	v(vcc)	voltage
	2	v(1)	voltage
	3	v(base)	voltage
	4	v(coll)	voltage
	5	v(emit)	voltage
	6	i(vin)	current
	7	i(vcc)	current
Values:
0		0.000000000000000e+00
	1.200000000000000e+01
	0.000000000000000e+00
	2.074617161619260e+00
	7.003534142229633e+00
	1.293956531382122e+00
	0.000000000000000e+00
	-1.380398920119799e-03
1		1.000000000000000e-07
	1.200000000000000e+01
	6.283184893762573e-04
	2.075245479720855e+00
	7.001071286764583e+00
	1.294594347803038e+00
	-3.877809717778291e-08
	-1.381024138340078e-03
2		2.000000000000000e-07
	1.200000000000000e+01
	1.256636730702326e-03
	2.075873797188779e+00
	6.998692651034442e+00
	1.295210353471941e+00
	-7.734021778560418e-08
	-1.381627761762871e-03
3		4.000000000000001e-07
	1.200000000000000e+01
	2.513271477003727e-03
	2.077130429617029e+00
	6.993935231468861e+00
	1.296442403165195e+00
	-1.544648000617599e-07
	-1.382835046609250e-03
4		8.000000000000002e-07
	1.200000000000000e+01
	5.026527078818863e-03
	2.079643675955285e+00
	6.984420266889161e+00
	1.298906535039724e+00
	-3.087132256496261e-07
	-1.385249648653483e-03
5		1.600000000000000e-06
	1.200000000000000e+01
	1.005292715673065e-02
	2.084670038996477e+00
	6.965389772556420e+00
	1.303834945154102e+00
	-6.172047974928319e-07
	-1.390078998954543e-03
6		3.200000000000001e-06
	1.200000000000000e+01
	2.010483832545758e-02
	2.094721802057653e+00
	6.927328242921541e+00
	1.313691905480118e+00
	-1.234139595851502e-06
	-1.399737847896977e-03
7		6.400000000000001e-06
	1.200000000000000e+01
	4.020154936295321e-02
	2.114817920817333e+00
	6.851216777181925e+00
	1.333402823705041e+00
	-2.467596763366942e-06
	-1.419052647155436e-03
8		1.280000000000000e-05
	1.200000000000000e+01
	8.033810013339424e-02
	2.154952104001408e+00
	6.699150238701480e+00
	1.372784158377943e+00
	-4.931110630934654e-06
	-1.457642725446786e-03
9		2.280000000000001e-05
	1.200000000000000e+01
	1.427671311474490e-01
	2.217374287904056e+00
	6.462476758244240e+00
	1.434076521807847e+00
	-8.763112181675581e-06
	-1.517704011417308e-03
10		3.280000000000000e-05
	1.200000000000000e+01
	2.046327255189627e-01
	2.279229220346818e+00
	6.227776840378993e+00
	1.494857783125963e+00
	-1.256074532207663e-05
	-1.577264928212175e-03
11		4.280000000000000e-05
	1.200000000000000e+01
	2.656907280106526e-01
	2.340272787979325e+00
	5.995996033897923e+00
	1.554883069437851e+00
	-1.630897304227830e-05
	-1.636085468556637e-03
12		5.280000000000000e-05
	1.200000000000000e+01
	3.257001705814321e-01
	2.400264079586189e+00
	5.768067794225648e+00
	1.613910639721094e+00
	-1.999295478771757e-05
	-1.693928694018074e-03
13		6.280000000000001e-05
	1.200000000000000e+01
	3.844242233771807e-01
	2.458966336851713e+00
	5.544909549840418e+00
	1.671702903521599e+00
	-2.359810566066045e-05
	-1.750561734108299e-03
14		7.280000000000001e-05
	1.200000000000000e+01
	4.416311293899813e-01
	2.516147888734713e+00
	5.327419101261529e+00
	1.728027353523300e+00
	-2.711015393952465e-05
	-1.805756700276364e-03
15		8.280000000000001e-05
	1.200000000000000e+01
	4.970951190971508e-01
	2.571583065766163e+00
	5.116471036702551e+00
	1.782657493802261e+00
	-3.051519749774911e-05
	-1.859291595828864e-03
16		9.280000000000001e-05
	1.200000000000000e+01
	5.505973014704015e-01
	2.625053090661289e+00
	4.912913250855102e+00
	1.835373741372272e+00
	-3.379975875272834e-05
	-1.910951199643361e-03
17		1.028000000000000e-04
	1.200000000000000e+01
	6.019265278387285e-01
	2.676346941731286e+00
	4.717563578764965e+00
	1.885964297924763e+00
	-3.695083790589138e-05
	-1.960527920642953e-03
18		1.128000000000000e-04
	1.200000000000000e+01
	6.508802251957485e-01
	2.725262185687218e+00
	4.531206555704214e+00
	1.934225988938837e+00
	-3.995596426964454e-05
	-2.007822620270253e-03
19		1.228000000000000e-04
	1.200000000000000e+01
	6.972651956628108e-01
	2.771605776549387e+00
	4.354590314050621e+00
	1.979965067309687e+00
	-4.280324551686476e-05
	-2.052645400170245e-03
20		1.328000000000000e-04
	1.200000000000000e+01
	7.408983789527588e-01
	2.815194817509273e+00
	4.188423628012920e+00
	2.022997978689435e+00
	-4.548141460603006e-05
	-2.094816352334415e-03
21		1.428000000000000e-04
	1.200000000000000e+01
	7.816075748252524e-01
	2.855857282737334e+00
	4.033373116736082e+00
	2.063152085810759e+00
	-4.797987425764205e-05
	-2.134166269035170e-03
22		1.528000000000000e-04
	1.200000000000000e+01
	8.192321226824456e-01
	2.893432696288019e+00
	3.890060615938550e+00
	2.100266349165741e+00
	-5.028873875900786e-05
	-2.170537309975953e-03
23		1.628000000000000e-04
	1.200000000000000e+01
	8.536235356229667e-01
	2.927772765422669e+00
	3.759060727742172e+00
	2.134191961536827e+00
	-5.239887298191803e-05
	-2.203783624206755e-03
24		1.728000000000000e-04
	1.200000000000000e+01
	8.846460864518816e-01
	2.958741965850886e+00
	3.640898557808119e+00
	2.164792934020861e+00
	-5.430192841249237e-05
	-2.233771924493256e-03
25		1.828000000000000e-04
	1.200000000000000e+01
	9.121773433339238e-01
	2.986218076580677e+00
	3.536047648262834e+00
	2.191946631348107e+00
	-5.599037608661206e-05
	-2.260382011987313e-03
26		1.928000000000000e-04
	1.200000000000000e+01
	9.361086529760148e-01
	3.010092662266577e+00
	3.444928114225048e+00
	2.215544254474036e+00
	-5.745753629593509e-05
	-2.283507249217066e-03
27		2.028000000000000e-04
	1.200000000000000e+01
	9.563455694321727e-01
	3.030271501152125e+00
	3.367904991012916e+00
	2.235491268610294e+00
	-5.869760492682730e-05
	-2.303054979600552e-03
28		2.128000000000000e-04
	1.200000000000000e+01
	9.728082268385126e-01
	3.046674956917824e+00
	3.305286798340234e+00
	2.251707775061059e+00
	-5.970567635671387e-05
	-2.318946891882044e-03
29		2.228000000000000e-04
	1.200000000000000e+01
	9.854316546073247e-01
	3.059238292967053e+00
	3.257324327002743e+00
	2.264128825440204e+00
	-6.047776281015160e-05
	-2.331119328095268e-03
30		2.328000000000000e-04
	1.200000000000000e+01
	9.941660338363008e-01
	3.067911927909584e+00
	3.224209652716527e+00
	2.272704677061904e+00
	-6.101081007869880e-05
	-2.339523533870513e-03
31		2.428000000000000e-04
	1.200000000000000e+01
	9.989768939209825e-01
	3.072661631234440e+00
	3.206075380905347e+00
	2.277400988521186e+00
	-6.130270957349637e-05
	-2.344125850122182e-03
32		2.528000000000000e-04
	1.200000000000000e+01
	9.998452485944885e-01
	3.073468658399841e+00
	3.202994125352206e+00
	2.278198954709899e+00
	-6.135230663684155e-05
	-2.344907845376974e-03
33		2.628000000000000e-04
	1.200000000000000e+01
	9.967676708576361e-01
	3.070329824807122e+00
	3.214978222728184e+00
	2.275095380746677e+00
	-6.115940509676676e-05
	-2.341866388231882e-03
34		2.728000000000001e-04
	1.200000000000000e+01
	9.897563065037408e-01
	3.063257518366656e+00
	3.241979684098520e+00
	2.268102694535131e+00
	-6.072476804508398e-05
	-2.335013659662867e-03
35		2.828000000000001e-04
	1.200000000000000e+01
	9.788388261847201e-01
	3.052279650606200e+00
	3.283890383600198e+00
	2.257248897901714e+00
	-6.005011482734801e-05
	-2.324377105134913e-03
36		2.928000000000001e-04
	1.200000000000000e+01
	9.640583162076707e-01
	3.037439546514613e+00
	3.340542483553314e+00
	2.242577456502147e+00
	-5.913811424651527e-05
	-2.309999326700671e-03
37		3.028000000000002e-04
	1.200000000000000e+01
	9.454731084928992e-01
	3.018795773555687e+00
	3.411709094373675e+00
	2.224147128921769e+00
	-5.799237406378666e-05
	-2.291937915501963e-03
38		3.128000000000002e-04
	1.200000000000000e+01
	9.231565503644822e-01
	2.996421910526867e+00
	3.497105166728477e+00
	2.202031735629406e+00
	-5.661742674156756e-05
	-2.270265225323327e-03
39		3.228000000000002e-04
	1.200000000000000e+01
	8.971967150818869e-01
	2.970406257175107e+00
	3.596388612506365e+00
	2.176319868675241e+00
	-5.501871158575256e-05
	-2.245068088067643e-03
40		3.328000000000002e-04
	1.200000000000000e+01
	8.676960542550533e-01
	2.940851485715840e+00
	3.709161650283581e+00
	2.147114543249226e+00
	-5.320255327934120e-05
	-2.216447472249616e-03
41		3.428000000000003e-04
	1.200000000000000e+01
	8.347709935146946e-01
	2.907874235630371e+00
	3.834972370131346e+00
	2.114532792436715e+00
	-5.117613693972345e-05
	-2.184518085815147e-03
42		3.528000000000003e-04
	1.200000000000000e+01
	7.985514730335239e-01
	2.871604653340841e+00
	3.973316511773366e+00
	2.078705206720605e+00
	-4.894747977690628e-05
	-2.149407924806754e-03
43		3.628000000000003e-04
	1.200000000000000e+01
	7.591804347117554e-01
	2.832185878579455e+00
	4.123639449332236e+00
	2.039775419983188e+00
	-4.652539945659839e-05
	-2.111257769590555e-03
44		3.728000000000003e-04
	1.200000000000000e+01
	7.168132580507283e-01
	2.789773479479034e+00
	4.285338375144154e+00
	1.997899543954218e+00
	-4.391947933068963e-05
	-2.070220630552863e-03
45		3.828000000000004e-04
	1.200000000000000e+01
	6.716171469410024e-01
	2.744534838614335e+00
	4.457764674424869e+00
	1.953245553233078e+00
	-4.114003061594929e-05
	-2.026461145351070e-03
46		3.928000000000004e-04
	1.200000000000000e+01
	6.237704697849883e-01
	2.696648492417161e+00
	4.640226481927451e+00
	1.905992623180224e+00
	-3.819805170479640e-05
	-1.980154929966226e-03
47		4.028000000000004e-04
	1.200000000000000e+01
	5.734620555583535e-01
	2.646303426572286e+00
	4.831991411141737e+00
	1.856330423124309e+00
	-3.510518477511937e-05
	-1.931487885954345e-03
48		4.128000000000004e-04
	1.200000000000000e+01
	5.208904485883221e-01
	2.593698330174951e+00
	5.032289446078589e+00
	1.804458367464226e+00
	-3.187366983237183e-05
	-1.880655466421690e-03
49		4.228000000000005e-04
	1.200000000000000e+01
	4.662631249899223e-01
	2.539040811593440e+00
	5.240315985248248e+00
	1.750584827356908e+00
	-2.851629638911390e-05
	-1.827861903358874e-03
50		4.328000000000005e-04
	1.200000000000000e+01
	4.097956738525463e-01
	2.482546579131384e+00
	5.455235027103741e+00
	1.694926305768975e+00
	-2.504635296851632e-05
	-1.773319399053881e-03
51		4.428000000000005e-04
	1.200000000000000e+01
	3.517109464083097e-01
	2.424438589723355e+00
	5.676182485995653e+00
	1.637706578729535e+00
	-2.147757461656852e-05
	-1.717247284360291e-03
52		4.528000000000005e-04
	1.200000000000000e+01
	2.922381765400467e-01
	2.364946169023465e+00
	5.902269627577647e+00
	1.579155805648237e+00
	-1.782408863704177e-05
	-1.659871146623189e-03
53		4.628000000000006e-04
	1.200000000000000e+01
	2.316120760999031e-01
	2.304304106359638e+00
	6.132586612644872e+00
	1.519509611552087e+00
	-1.410035873039561e-05
	-1.601421930053103e-03
54		4.728000000000006e-04
	1.200000000000000e+01
	1.700719086088857e-01
	2.242751728125358e+00
	6.366206138593093e+00
	1.459008144040602e+00
	-1.032112779508765e-05
	-1.542135011284620e-03
55		4.828000000000006e-04
	1.200000000000000e+01
	1.078605449930533e-01
	2.180531953265848e+00
	6.602187168092860e+00
	1.397895107655164e+00
	-6.501359560040498e-06
	-1.482249252751224e-03
56		4.928000000000006e-04
	1.200000000000000e+01
	4.522350508292895e-02
	2.117890334586296e+00
	6.839578735185157e+00
	1.336416778197570e+00
	-2.656179295179584e-06
	-1.422006036350251e-03
57		5.028000000000006e-04
	1.200000000000000e+01
	-1.759201134110303e-02
	2.055074089665712e+00
	7.077423819883800e+00
	1.274820999307412e+00
	1.199186190348200e-06
	-1.361648279645958e-03
58		5.128000000000006e-04
	1.200000000000000e+01
	-8.033810013339850e-02
	1.992331125201040e+00
	7.314763283511625e+00
	1.213356163311013e+00
	5.049469055773415e-06
	-1.301419436565522e-03
59		5.228000000000007e-04
	1.200000000000000e+01
	-1.427671311474533e-01
	1.929909058632112e+00
	7.550639858437862e+00
	1.152270177981581e+00
	8.879421196983373e-06
	-1.241562484173202e-03
60		5.328000000000007e-04
	1.200000000000000e+01
	-2.046327255189670e-01
	1.868054240908749e+00
	7.784102187623429e+00
	1.091809420400617e+00
	1.267387510495155e-05
	-1.182318896661829e-03
61		5.428000000000007e-04
	1.200000000000000e+01
	-2.656907280106570e-01
	1.807010784256898e+00
	8.014208911373876e+00
	1.032217678593737e+00
	1.641780457095621e-05
	-1.123927607189771e-03
62		5.528000000000008e-04
	1.200000000000000e+01
	-3.257001705814365e-01
	1.747019598780933e+00
	8.240032800860309e+00
	9.737350810546150e-01
	2.009638505962030e-05
	-1.066623957637753e-03
63		5.628000000000008e-04
	1.200000000000000e+01
	-3.844242233771851e-01
	1.688317441704496e+00
	8.460664940094198e+00
	9.165970137208533e-01
	2.369505356236701e-05
	-1.010638635815212e-03
64		5.728000000000008e-04
	1.200000000000000e+01
	-4.416311293899857e-01
	1.631135983002336e+00
	8.675218959760603e+00
	8.610330235195985e-01
	2.719956771812804e-05
	-9.561965992057201e-04
65		5.828000000000008e-04
	1.200000000000000e+01
	-4.970951190971554e-01
	1.575700891111056e+00
	8.882835327022660e+00
	8.072657074182850e-01
	3.059606406230486e-05
	-9.035159841600028e-04
66		5.928000000000009e-04
	1.200000000000000e+01
	-5.505973014704061e-01
	1.522230942327427e+00
	9.082685694113845e+00
	7.555095862506427e-01
	3.387111518105002e-05
	-8.528069997783042e-04
67		6.028000000000009e-04
	1.200000000000000e+01
	-6.019265278387329e-01
	1.470937157409503e+00
	9.273977303771547e+00
	7.059699638223919e-01
	3.701178562431906e-05
	-8.042708069460214e-04
68		6.128000000000009e-04
	1.200000000000000e+01
	-6.508802251957528e-01
	1.422021968788464e+00
	9.455957439228724e+00
	6.588417744775207e-01
	4.000568633877322e-05
	-7.580983856380836e-04
69		6.228000000000009e-04
	1.200000000000000e+01
	-6.972651956628149e-01
	1.375678421678266e+00
	9.627917887812877e+00
	6.143084271405127e-01
	4.284102738916218e-05
	-7.144693983953000e-04
70		6.328000000000010e-04
	1.200000000000000e+01
	-7.408983789527627e-01
	1.332089412236338e+00
	9.789199356927581e+00
	5.725406616904518e-01
	4.550666865110742e-05
	-6.735510656397958e-04
71		6.428000000000010e-04
	1.200000000000000e+01
	-7.816075748252567e-01
	1.291426965782176e+00
	9.939195736107830e+00
	5.336954451978994e-01
	4.799216801343320e-05
	-6.354970800581195e-04
72		6.528000000000010e-04
	1.200000000000000e+01
	-8.192321226824493e-01
	1.253851557922278e+00
	1.007735803715018e+01
	4.979149515321984e-01
	5.028782657667819e-05
	-6.004466031002192e-04
73		6.628000000000010e-04
	1.200000000000000e+01
	-8.536235356229699e-01
	1.219511481260051e+00
	1.020319776796910e+01
	4.653256876192323e-01
	5.238473001245580e-05
	-5.685234062209640e-04
74		6.728000000000011e-04
	1.200000000000000e+01
	-8.846460864518846e-01
	1.188542260188725e+00
	1.031628941400968e+01
	4.360378508191078e-01
	5.427478516262241e-05
	-5.398352404725544e-04
75		6.828000000000011e-04
	1.200000000000000e+01
	-9.121773433339263e-01
	1.161066116074635e+00
	1.041627163406931e+01
	4.101450192390323e-01
	5.595075073960842e-05
	-5.144735352317388e-04
76		6.928000000000011e-04
	1.200000000000000e+01
	-9.361086529760172e-01
	1.137191484938396e+00
	1.050284675894659e+01
	3.877242815703709e-01
	5.740626096217838e-05
	-4.925135315745673e-04
77		7.028000000000011e-04
	1.200000000000000e+01
	-9.563455694321745e-01
	1.117012589533298e+00
	1.057577825536142e+01
	3.688368938683037e-01
	5.863584115717302e-05
	-4.740149368325079e-04
78		7.128000000000012e-04
	1.200000000000000e+01
	-9.728082268385145e-01
	1.100609067504999e+00
	1.063488602508454e+01
	3.535294969567976e-01
	5.963491492444462e-05
	-4.590231336622473e-04
79		7.228000000000012e-04
	1.200000000000000e+01
	-9.854316546073260e-01
	1.088045657095319e+00
	1.068003976361487e+01
	3.418358363608400e-01
	6.039980333927275e-05
	-4.475708860919017e-04
80		7.328000000000012e-04
	1.200000000000000e+01
	-9.941660338363016e-01
	1.079371941626964e+00
	1.071115106049616e+01
	3.337788081219220e-01
	6.092771790200402e-05
	-4.396803676359972e-04
81		7.428000000000013e-04
	1.200000000000000e+01
	-9.989768939209829e-01
	1.074622153776264e+00
	1.072816536822262e+01
	3.293725386455605e-01
	6.121675006021121e-05
	-4.353652225077193e-04
82		7.528000000000013e-04
	1.200000000000000e+01
	-9.998452485944884e-01
	1.073815040408201e+00
	1.073105523112719e+01
	3.286241382456123e-01
	6.126586082544350e-05
	-4.346323031530499e-04
83		7.628000000000013e-04
	1.200000000000000e+01
	-9.967676708576354e-01
	1.076953788512401e+00
	1.071981609801702e+01
	3.315347855643442e-01
	6.107487386852739e-05
	-4.374827446746148e-04
84		7.728000000000013e-04
	1.200000000000000e+01
	-9.897563065037397e-01
	1.084026012540382e+00
	1.069446559382908e+01
	3.380999161949559e-01
	6.064447430143005e-05
	-4.439121517132950e-04
85		7.828000000000014e-04
	1.200000000000000e+01
	-9.788388261847184e-01
	1.095003803203327e+00
	1.065504640157629e+01
	3.483084763313903e-01
	5.997621354625338e-05
	-4.539098589996875e-04
86		7.928000000000014e-04
	1.200000000000000e+01
	-9.640583162076686e-01
	1.109843837546506e+00
	1.060163213548191e+01
	3.621414017771578e-01
	5.907251871128949e-05
	-4.674574243214808e-04
87		8.028000000000014e-04
	1.200000000000000e+01
	-9.454731084928966e-01
	1.128487549872354e+00
	1.053433501822610e+01
	3.795696297352926e-01
	5.793670344145241e-05
	-4.845266582894549e-04
88		8.128000000000014e-04
	1.200000000000000e+01
	-9.231565503644793e-01
	1.150861362840844e+00
	1.045331396339745e+01
	4.005520056606180e-01
	5.657297670369488e-05
	-5.050775496030146e-04
89		8.228000000000015e-04
	1.200000000000000e+01
	-8.971967150818838e-01
	1.176876977834962e+00
	1.035878181198114e+01
	4.250334091948889e-01
	5.498644633972205e-05
	-5.290564066367442e-04
90		8.328000000000015e-04
	1.200000000000000e+01
	-8.676960542550490e-01
	1.206431723442583e+00
	1.025101085937966e+01
	4.529433228101101e-01
	5.318311523305752e-05
	-5.563944367707901e-04
91		8.428000000000015e-04
	1.200000000000000e+01
	-8.347709935146903e-01
	1.239408960675124e+00
	1.013033627165612e+01
	4.841949470890963e-01
	5.116986913122901e-05
	-5.870068663788599e-04
92		8.528000000000015e-04
	1.200000000000000e+01
	-7.985514730335189e-01
	1.275678543318965e+00
	9.997157389639254e+00
	5.186848629957708e-01
	4.895445620745065e-05
	-6.207926018387969e-04
93		8.628000000000016e-04
	1.200000000000000e+01
	-7.591804347117503e-01
	1.315097331598401e+00
	9.851937186213222e+00
	5.562931724231200e-01
	4.654545912741170e-05
	-6.576343635524206e-04
94		8.728000000000016e-04
	1.200000000000000e+01
	-7.168132580507228e-01
	1.357509757119360e+00
	9.695200267795260e+00
	5.968840157593009e-01
	4.395226073627967e-05
	-6.973991927377143e-04
95		8.828000000000016e-04
	1.200000000000000e+01
	-6.716171469409968e-01
	1.402748436861715e+00
	9.527529826883928e+00
	6.403063610994667e-01
	4.118500452321427e-05
	-7.399392266867863e-04
96		8.928000000000016e-04
	1.200000000000000e+01
	-6.237704697849829e-01
	1.450634833795441e+00
	9.349563902279895e+00
	6.863949727527243e-01
	3.825455090078478e-05
	-7.850926510774574e-04
97		9.028000000000017e-04
	1.200000000000000e+01
	-5.734620555583466e-01
	1.500979961512599e+00
	9.161991225474290e+00
	7.349714869210787e-01
	3.517243014261595e-05
	-8.326847579555692e-04
98		9.128000000000017e-04
	1.200000000000000e+01
	-5.208904485883153e-01
	1.553585130094029e+00
	8.965546851666556e+00
	7.858455431537374e-01
	3.195079265516654e-05
	-8.825290585281480e-04
99		9.228000000000017e-04
	1.200000000000000e+01
	-4.662631249899150e-01
	1.608242730267271e+00
	8.761007705518137e+00
	8.388159378827362e-01
	2.860235702994984e-05
	-9.344284174362667e-04
100		9.328000000000017e-04
	1.200000000000000e+01
	-4.097956738525396e-01
	1.664737052761304e+00
	8.549188119740581e+00
	8.936717798142766e-01
	2.514035628431444e-05
	-9.881761885132639e-04
101		9.428000000000018e-04
	1.200000000000000e+01
	-3.517109464083024e-01
	1.722845139624939e+00
	8.330935408455016e+00
	9.501936363150112e-01
	2.157848251105321e-05
	-1.043557341307593e-03
102		9.528000000000018e-04
	1.200000000000000e+01
	-2.922381765400396e-01
	1.782337664149563e+00
	8.107125494138987e+00
	1.008154665920832e+00
	1.793083021084385e-05
	-1.100349573579277e-03
103		9.628000000000018e-04
	1.200000000000000e+01
	-2.316120760998955e-01
	1.842979835924050e+00
	7.878658593533467e+00
	1.067321735576226e+00
	1.421183847538643e-05
	-1.158324408427050e-03
104		9.728000000000019e-04
