Title: a berkeley spice3 compatible circuit
Date: Fri Apr  4 03:36:09  2025
Plotname: DC transfer characteristic
Flags: real
No. Variables: 8
No. Points: 151     
Variables:
	0	v(v-sweep)	voltage
	1	v(vcc)	voltage
	2	v(1)	voltage
	3	v(base)	voltage
	4	v(coll)	voltage
	5	v(emit)	voltage
	6	i(vin)	current
	7	i(vcc)	current
Values:
0		0.000000000000000e+00
	0.000000000000000e+00
	0.000000000000000e+00
	1.510307685356183e-28
	-4.377408270074503e-29
	3.420867438855607e-30
	0.000000000000000e+00
	-9.713816084065620e-33
1		1.000000000000000e-01
	1.000000000000000e-01
	0.000000000000000e+00
	1.935483990196190e-02
	9.999999929276006e-02
	1.974221227411298e-11
	0.000000000000000e+00
	-8.064517823239592e-07
2		2.000000000000000e-01
	2.000000000000000e-01
	0.000000000000000e+00
	3.870967979374101e-02
	1.999999985888402e-01
	3.915924386853906e-11
	0.000000000000000e+00
	-1.612903563898450e-06
3		3.000000000000000e-01
	3.000000000000000e-01
	0.000000000000000e+00
	5.806451968959397e-02
	2.999999978823815e-01
	5.901675554880707e-11
	0.000000000000000e+00
	-2.419355346083184e-06
4		4.000000000000000e-01
	4.000000000000000e-01
	0.000000000000000e+00
	7.741935958533405e-02
	3.999999971737657e-01
	7.943321965530788e-11
	0.000000000000000e+00
	-3.225807128822135e-06
5		5.000000000000000e-01
	5.000000000000000e-01
	0.000000000000000e+00
	9.677419948084647e-02
	4.999999964605864e-01
	1.010315443624634e-10
	0.000000000000000e+00
	-4.032258912733489e-06
6		6.000000000000000e-01
	6.000000000000000e-01
	0.000000000000000e+00
	1.161290393758798e-01
	5.999999957377620e-01
	1.251277403753641e-10
	0.000000000000000e+00
	-4.838710699122772e-06
7		7.000000000000000e-01
	7.000000000000000e-01
	0.000000000000000e+00
	1.354838792699014e-01
	6.999999949945530e-01
	1.545030055568891e-10
	0.000000000000000e+00
	-5.645162490748942e-06
8		7.999999999999999e-01
	7.999999999999999e-01
	0.000000000000000e+00
	1.548387191617849e-01
	7.999999942082632e-01
	1.950351425505687e-10
	0.000000000000000e+00
	-6.451614293442865e-06
9		8.999999999999999e-01
	8.999999999999999e-01
	0.000000000000000e+00
	1.741935590491499e-01
	8.999999933309253e-01
	2.591463759074340e-10
	0.000000000000000e+00
	-7.258066119527636e-06
10		9.999999999999999e-01
	9.999999999999999e-01
	0.000000000000000e+00
	1.935483989269653e-01
	9.999999922611652e-01
	3.730900080795110e-10
	0.000000000000000e+00
	-8.064517995046930e-06
11		1.100000000000000e+00
	1.100000000000000e+00
	0.000000000000000e+00
	2.129032387845987e-01
	1.099999990784738e+00
	5.923501379302085e-10
	0.000000000000000e+00
	-8.870969975041762e-06
12		1.200000000000000e+00
	1.200000000000000e+00
	0.000000000000000e+00
	2.322580785995791e-01
	1.199999988448853e+00
	1.034187638956359e-09
	0.000000000000000e+00
	-9.677422175836752e-06
13		1.300000000000000e+00
	1.300000000000000e+00
	0.000000000000000e+00
	2.516129183244163e-01
	1.299999984296579e+00
	1.946423271252170e-09
	0.000000000000000e+00
	-1.048387484327393e-05
14		1.400000000000000e+00
	1.400000000000000e+00
	0.000000000000000e+00
	2.709677578587431e-01
	1.399999976305525e+00
	3.852804797965395e-09
	0.000000000000000e+00
	-1.129032849691918e-05
15		1.500000000000000e+00
	1.500000000000000e+00
	0.000000000000000e+00
	2.903225969904428e-01
	1.499999960201539e+00
	7.860227519046563e-09
	0.000000000000000e+00
	-1.209678423482927e-05
16		1.600000000000000e+00
	1.600000000000000e+00
	0.000000000000000e+00
	3.096774352712258e-01
	1.599999926951583e+00
	1.630801675481222e-08
	0.000000000000000e+00
	-1.290324437765107e-05
17		1.700000000000000e+00
	1.700000000000000e+00
	0.000000000000000e+00
	3.290322717536723e-01
	1.699999857465157e+00
	3.414012284118696e-08
	0.000000000000000e+00
	-1.370971382985914e-05
18		1.800000000000000e+00
	1.800000000000000e+00
	0.000000000000000e+00
	3.483871044355033e-01
	1.799999711396348e+00
	7.180510259410256e-08
	0.000000000000000e+00
	-1.451620295658145e-05
19		1.900000000000001e+00
	1.900000000000001e+00
	0.000000000000000e+00
	3.677419290851234e-01
	1.899999403478531e+00
	1.513848253902428e-07
	0.000000000000000e+00
	-1.532273366337166e-05
20		2.000000000000000e+00
	2.000000000000000e+00
	0.000000000000000e+00
	3.870967367596406e-01
	1.999998753512479e+00
	3.195462713282850e-07
	0.000000000000000e+00
	-1.612935224458857e-05
21		2.100000000000001e+00
	2.100000000000001e+00
	0.000000000000000e+00
	4.064515085600091e-01
	2.099997380682519e+00
	6.749109358385420e-07
	0.000000000000000e+00
	-1.693615653426705e-05
22		2.200000000000001e+00
	2.200000000000001e+00
	0.000000000000000e+00
	4.258062045491358e-01
	2.199994480256427e+00
	1.425883831866308e-06
	0.000000000000000e+00
	-1.774335327337374e-05
23		2.300000000000001e+00
	2.300000000000001e+00
	0.000000000000000e+00
	4.451607403431290e-01
	2.299988351899228e+00
	3.012808122417784e-06
	0.000000000000000e+00
	-1.855137928907465e-05
24		2.400000000000001e+00
	2.400000000000001e+00
	0.000000000000000e+00
	4.645149376919461e-01
	2.399975403873491e+00
	6.365851712478158e-06
	0.000000000000000e+00
	-1.936115732218574e-05
25		2.500000000000001e+00
	2.500000000000001e+00
	0.000000000000000e+00
	4.838684202723649e-01
	2.499948053268244e+00
	1.344879412264400e-05
	0.000000000000000e+00
	-2.017463547208595e-05
26		2.600000000000001e+00
	2.600000000000001e+00
	0.000000000000000e+00
	5.032203945086725e-01
	2.599890309536993e+00
	2.840277690730317e-05
	0.000000000000000e+00
	-2.099592181465889e-05
27		2.700000000000001e+00
	2.700000000000001e+00
	0.000000000000000e+00
	5.225691910307552e-01
	2.699768534880624e+00
	5.993912758540245e-05
	0.000000000000000e+00
	-2.183365812030214e-05
28		2.800000000000001e+00
	2.800000000000001e+00
	0.000000000000000e+00
	5.419113161866782e-01
	2.799512332230804e+00
	1.262888819187562e-04
	0.000000000000000e+00
	-2.270592985587614e-05
29		2.900000000000001e+00
	2.900000000000001e+00
	0.000000000000000e+00
	5.612395369497830e-01
	2.898975956137956e+00
	2.651963745278795e-04
	0.000000000000000e+00
	-2.365017997974471e-05
30		3.000000000000001e+00
	3.000000000000001e+00
	0.000000000000000e+00
	5.805392100991809e-01
	2.997864345777262e+00
	5.530747938674470e-04
	0.000000000000000e+00
	-2.474221154586450e-05
31		3.100000000000001e+00
	3.100000000000001e+00
	0.000000000000000e+00
	5.997820111633333e-01
	3.095606763194417e+00
	1.137730636745351e-03
	0.000000000000000e+00
	-2.612865086415754e-05
32		3.200000000000002e+00
	3.200000000000002e+00
	0.000000000000000e+00
	6.189178382930811e-01
	3.191193656389213e+00
	2.280611986942759e-03
	0.000000000000000e+00
	-2.806885844034834e-05
33		3.300000000000002e+00
	3.300000000000002e+00
	0.000000000000000e+00
	6.378715358353373e-01
	3.283110639342514e+00
	4.373905995521843e-03
	0.000000000000000e+00
	-3.095188993843835e-05
34		3.400000000000002e+00
	3.400000000000002e+00
	0.000000000000000e+00
	6.565555033597051e-01
	3.369592563837046e+00
	7.874740793478247e-03
	0.000000000000000e+00
	-3.523122346972508e-05
35		3.500000000000002e+00
	3.500000000000002e+00
	0.000000000000000e+00
	6.749111797860001e-01
	3.449459424411430e+00
	1.308870754071831e-02
	0.000000000000000e+00
	-4.121001014792771e-05
36		3.600000000000002e+00
	3.600000000000002e+00
	0.000000000000000e+00
	6.929297980303176e-01
	3.522534564370529e+00
	2.006155579191787e-02
	0.000000000000000e+00
	-4.893363423238235e-05
37		3.700000000000002e+00
	3.700000000000002e+00
	0.000000000000000e+00
	7.106476275859355e-01
	3.589548813815400e+00
	2.860401928892198e-02
	0.000000000000000e+00
	-5.821434069455146e-05
38		3.800000000000002e+00
	3.800000000000002e+00
	0.000000000000000e+00
	7.281233337686756e-01
	3.651684278555089e+00
	3.840996293562954e-02
	0.000000000000000e+00
	-6.874843882767590e-05
39		3.900000000000002e+00
	3.900000000000002e+00
	0.000000000000000e+00
	7.453983982941933e-01
	3.709776814944160e+00
	4.926292136703375e-02
	0.000000000000000e+00
	-8.032119167240219e-05
40		4.000000000000002e+00
	4.000000000000002e+00
	0.000000000000000e+00
	7.625212886556091e-01
	3.764803042717642e+00
	6.090997511167284e-02
	0.000000000000000e+00
	-9.268169923712616e-05
41		4.100000000000001e+00
	4.100000000000001e+00
	0.000000000000000e+00
	7.795255857365502e-01
	3.817439616505863e+00
	7.317588796928487e-02
	0.000000000000000e+00
	-1.056561245257469e-04
42		4.200000000000001e+00
	4.200000000000001e+00
	0.000000000000000e+00
	7.964356895932754e-01
	3.868178197315236e+00
	8.593333234508327e-02
	0.000000000000000e+00
	-1.191181566129814e-04
43		4.300000000000001e+00
	4.300000000000001e+00
	0.000000000000000e+00
	8.132699904236748e-01
	3.917389347538484e+00
	9.908634208034017e-02
	0.000000000000000e+00
	-1.329725955987165e-04
44		4.400000000000000e+00
	4.400000000000000e+00
	0.000000000000000e+00
	8.300424384733073e-01
	3.965354164550634e+00
	1.125621201620804e-01
	0.000000000000000e+00
	-1.471472257304892e-04
45		4.500000000000000e+00
	4.500000000000000e+00
	0.000000000000000e+00
	8.467637278701546e-01
	4.012288134974940e+00
	1.263048610798211e-01
	0.000000000000000e+00
	-1.615866870866990e-04
46		4.600000000000000e+00
	4.600000000000000e+00
	0.000000000000000e+00
	8.634421685162903e-01
	4.058358703295087e+00
	1.402712010054563e-01
	0.000000000000000e+00
	-1.762479620853277e-04
47		4.699999999999999e+00
	4.699999999999999e+00
	0.000000000000000e+00
	8.800843062508326e-01
	4.103697768135379e+00
	1.544269815770913e-01
	0.000000000000000e+00
	-1.910971651079075e-04
48		4.799999999999999e+00
	4.799999999999999e+00
	0.000000000000000e+00
	8.966953651791978e-01
	4.148410595191960e+00
	1.687449416783674e-01
	0.000000000000000e+00
	-2.061072527092440e-04
49		4.899999999999999e+00
	4.899999999999999e+00
	0.000000000000000e+00
	9.132795661865996e-01
	4.192582235281673e+00
	1.832030553283740e-01
	0.000000000000000e+00
	-2.212563747787304e-04
50		4.999999999999998e+00
	4.999999999999998e+00
	0.000000000000000e+00
	9.298403588457376e-01
	4.236282197275242e+00
	1.977833215117533e-01
	0.000000000000000e+00
	-2.365266740332751e-04
51		5.099999999999998e+00
	5.099999999999998e+00
	0.000000000000000e+00
	9.463805923154275e-01
	4.279567891707651e+00
	2.124708723719179e-01
	0.000000000000000e+00
	-2.519034013312937e-04
52		5.199999999999998e+00
	5.199999999999998e+00
	0.000000000000000e+00
	9.629026428441408e-01
	4.322487199975159e+00
	2.272533078548830e-01
	0.000000000000000e+00
	-2.673742556292098e-04
53		5.299999999999997e+00
	5.299999999999997e+00
	0.000000000000000e+00
	9.794085100605641e-01
	4.365080414583439e+00
	2.421201932347535e-01
	0.000000000000000e+00
	-2.829288855190249e-04
54		5.399999999999997e+00
	5.399999999999997e+00
	0.000000000000000e+00
	9.958998905482603e-01
	4.407381721683473e+00
	2.570626751749405e-01
	0.000000000000000e+00
	-2.985585083551646e-04
55		5.499999999999996e+00
	5.499999999999996e+00
	0.000000000000000e+00
	1.012378234694777e+00
	4.449420346575639e+00
	2.720731850719538e-01
	0.000000000000000e+00
	-3.142556159669901e-04
56		5.599999999999996e+00
	5.599999999999996e+00
	0.000000000000000e+00
	1.028844791082280e+00
	4.491221448184961e+00
	2.871452074092814e-01
	0.000000000000000e+00
	-3.300137448622631e-04
57		5.699999999999996e+00
	5.699999999999996e+00
	0.000000000000000e+00
	1.045300641496100e+00
	4.532806824480684e+00
	3.022730970717687e-01
	0.000000000000000e+00
	-3.458272950002475e-04
58		5.799999999999995e+00
	5.799999999999995e+00
	0.000000000000000e+00
	1.061746728792189e+00
	4.574195474004974e+00
	3.174519339241119e-01
	0.000000000000000e+00
	-3.616913855313145e-04
59		5.899999999999995e+00
	5.899999999999995e+00
	0.000000000000000e+00
	1.078183879274634e+00
	4.615404046780542e+00
	3.326774060373192e-01
	0.000000000000000e+00
	-3.776017389558314e-04
60		5.999999999999995e+00
	5.999999999999995e+00
	0.000000000000000e+00
	1.094612820812423e+00
	4.656447209363742e+00
	3.479457151493359e-01
	0.000000000000000e+00
	-3.935545873396328e-04
61		6.099999999999994e+00
	6.099999999999994e+00
	0.000000000000000e+00
	1.111034197619613e+00
	4.697337942664844e+00
	3.632534995372264e-01
	0.000000000000000e+00
	-4.095465958020477e-04
62		6.199999999999994e+00
	6.199999999999994e+00
	0.000000000000000e+00
	1.127448582400415e+00
	4.738087786671253e+00
	3.785977706401329e-01
	0.000000000000000e+00
	-4.255747996449041e-04
63		6.299999999999994e+00
	6.299999999999994e+00
	0.000000000000000e+00
	1.143856486396642e+00
	4.778707042901469e+00
	3.939758606288829e-01
	0.000000000000000e+00
	-4.416365523407836e-04
64		6.399999999999993e+00
	6.399999999999993e+00
	0.000000000000000e+00
	1.160258367752373e+00
	4.819204942957017e+00
	4.093853787553752e-01
	0.000000000000000e+00
	-4.577294822309321e-04
65		6.499999999999993e+00
	6.499999999999993e+00
	0.000000000000000e+00
	1.176654638519769e+00
	4.859589789686911e+00
	4.248241747946023e-01
	0.000000000000000e+00
	-4.738514562591823e-04
66		6.599999999999993e+00
	6.599999999999993e+00
	0.000000000000000e+00
	1.193045670559493e+00
	4.899869076081516e+00
	4.402903082541629e-01
	0.000000000000000e+00
	-4.900005494273480e-04
67		6.699999999999992e+00
	6.699999999999992e+00
	0.000000000000000e+00
	1.209431800536647e+00
	4.940049585940558e+00
	4.557820223038724e-01
	0.000000000000000e+00
	-5.061750189329502e-04
68		6.799999999999992e+00
	6.799999999999992e+00
	0.000000000000000e+00
	1.225813334172014e+00
	4.980137479535818e+00
	4.712977215912749e-01
	0.000000000000000e+00
	-5.223732821619143e-04
69		6.899999999999991e+00
	6.899999999999991e+00
	0.000000000000000e+00
	1.242190549876676e+00
	5.020138366850828e+00
	4.868359532744800e-01
	0.000000000000000e+00
	-5.385938978728136e-04
70		6.999999999999991e+00
	6.999999999999991e+00
	0.000000000000000e+00
	1.258563701873678e+00
	5.060057370477916e+00
	5.023953907334072e-01
	0.000000000000000e+00
	-5.548355500382054e-04
71		7.099999999999991e+00
	7.099999999999991e+00
	0.000000000000000e+00
	1.274933022890066e+00
	5.099899179864257e+00
	5.179748195214781e-01
	0.000000000000000e+00
	-5.710970339084670e-04
72		7.199999999999990e+00
	7.199999999999990e+00
	0.000000000000000e+00
	1.291298726487788e+00
	5.139668098284515e+00
	5.335731252008916e-01
	0.000000000000000e+00
	-5.873772439442184e-04
73		7.299999999999990e+00
	7.299999999999990e+00
	0.000000000000000e+00
	1.307661009090280e+00
	5.179368083668301e+00
	5.491892827693463e-01
	0.000000000000000e+00
	-6.036751633274791e-04
74		7.399999999999990e+00
	7.399999999999990e+00
	0.000000000000000e+00
	1.324020051749869e+00
	5.219002784219033e+00
	5.648223474357013e-01
	0.000000000000000e+00
	-6.199898548109517e-04
75		7.499999999999989e+00
	7.499999999999989e+00
	0.000000000000000e+00
	1.340376021695155e+00
	5.258575569593041e+00
	5.804714465453629e-01
	0.000000000000000e+00
	-6.363204527079075e-04
76		7.599999999999989e+00
	7.599999999999989e+00
	0.000000000000000e+00
	1.356729073690107e+00
	5.298089558282840e+00
	5.961357724887291e-01
	0.000000000000000e+00
	-6.526661558572395e-04
77		7.699999999999989e+00
	7.699999999999989e+00
	0.000000000000000e+00
	1.373079351231182e+00
	5.337547641743168e+00
	6.118145764531476e-01
	0.000000000000000e+00
	-6.690262214253347e-04
78		7.799999999999988e+00
	7.799999999999988e+00
	0.000000000000000e+00
	1.389426987605741e+00
	5.376952505708116e+00
	6.275071629023566e-01
	0.000000000000000e+00
	-6.853999594295512e-04
79		7.899999999999988e+00
	7.899999999999988e+00
	0.000000000000000e+00
	1.405772106828826e+00
	5.416306649086130e+00
	6.432128846831411e-01
	0.000000000000000e+00
	-7.017867278839829e-04
80		7.999999999999988e+00
	7.999999999999988e+00
	0.000000000000000e+00
	1.422114824477136e+00
	5.455612400744488e+00
	6.589311386785769e-01
	0.000000000000000e+00
	-7.181859284874079e-04
81		8.099999999999987e+00
	8.099999999999987e+00
	0.000000000000000e+00
	1.438455248430829e+00
	5.494871934467741e+00
	6.746613619342128e-01
	0.000000000000000e+00
	-7.345970027803701e-04
82		8.199999999999987e+00
	8.199999999999987e+00
	0.000000000000000e+00
	1.454793479536551e+00
	5.534087282315997e+00
	6.904030281985708e-01
	0.000000000000000e+00
	-7.510194287133499e-04
83		8.299999999999986e+00
	8.299999999999986e+00
	0.000000000000000e+00
	1.471129612200979e+00
	5.573260346585281e+00
	7.061556448257617e-01
	0.000000000000000e+00
	-7.674527175740686e-04
84		8.399999999999986e+00
	8.399999999999986e+00
	0.000000000000000e+00
	1.487463734923782e+00
	5.612392910538970e+00
	7.219187499962884e-01
	0.000000000000000e+00
	-7.838964112305098e-04
85		8.499999999999986e+00
	8.499999999999986e+00
	0.000000000000000e+00
	1.503795930776070e+00
	5.651486648062669e+00
	7.376919102167022e-01
	0.000000000000000e+00
	-8.003500796505258e-04
86		8.599999999999985e+00
	8.599999999999985e+00
	0.000000000000000e+00
	1.520126277832667e+00
	5.690543132361723e+00
	7.534747180671343e-01
	0.000000000000000e+00
	-8.168133186673818e-04
87		8.699999999999985e+00
	8.699999999999985e+00
	0.000000000000000e+00
	1.536454849561611e+00
	5.729563843819887e+00
	7.692667901661889e-01
	0.000000000000000e+00
	-8.332857479608196e-04
88		8.799999999999985e+00
	8.799999999999985e+00
	0.000000000000000e+00
	1.552781715177487e+00
	5.768550177106447e+00
	7.850677653302316e-01
	0.000000000000000e+00
	-8.497670092311835e-04
89		8.899999999999984e+00
	8.899999999999984e+00
	0.000000000000000e+00
	1.569106939960733e+00
	5.807503447624621e+00
	8.008773029035876e-01
	0.000000000000000e+00
	-8.662567645427938e-04
90		8.999999999999984e+00
	8.999999999999984e+00
	0.000000000000000e+00
	1.585430585548573e+00
	5.846424897363914e+00
	8.166950812428053e-01
	0.000000000000000e+00
	-8.827546948204298e-04
91		9.099999999999984e+00
	9.099999999999984e+00
	0.000000000000000e+00
	1.601752710199175e+00
	5.885315700227761e+00
	8.325207963370080e-01
	0.000000000000000e+00
	-8.992604984806292e-04
92		9.199999999999983e+00
	9.199999999999983e+00
	0.000000000000000e+00
	1.618073369033011e+00
	5.924176966886440e+00
	8.483541605510470e-01
	0.000000000000000e+00
	-9.157738901849376e-04
93		9.299999999999983e+00
	9.299999999999983e+00
	0.000000000000000e+00
	1.634392614251796e+00
	5.963009749213095e+00
	8.641949014767684e-01
	0.000000000000000e+00
	-9.322945997002738e-04
94		9.399999999999983e+00
	9.399999999999983e+00
	0.000000000000000e+00
	1.650710495340789e+00
	6.001815044331359e+00
	8.800427608847081e-01
	0.000000000000000e+00
	-9.488223708590600e-04
95		9.499999999999982e+00
	9.499999999999982e+00
	0.000000000000000e+00
	1.667027059252353e+00
	6.040593798328717e+00
	8.958974937624601e-01
	0.000000000000000e+00
	-9.653569606052367e-04
96		9.599999999999982e+00
	9.599999999999982e+00
	0.000000000000000e+00
	1.683342350574667e+00
	6.079346909660529e+00
	9.117588674331197e-01
	0.000000000000000e+00
	-9.818981381197543e-04
97		9.699999999999982e+00
	9.699999999999982e+00
	0.000000000000000e+00
	1.699656411687299e+00
	6.118075232274181e+00
	9.276266607462362e-01
	0.000000000000000e+00
	-9.984456840179475e-04
98		9.799999999999981e+00
	9.799999999999981e+00
	0.000000000000000e+00
	1.715969282903603e+00
	6.156779578484404e+00
	9.435006633330859e-01
	0.000000000000000e+00
	-1.014999389610856e-03
99		9.899999999999981e+00
	9.899999999999981e+00
	0.000000000000000e+00
	1.732281002602398e+00
	6.195460721620059e+00
	9.593806749213427e-01
	0.000000000000000e+00
	-1.031559056225238e-03
100		9.999999999999980e+00
	9.999999999999980e+00
	0.000000000000000e+00
	1.748591607348434e+00
	6.234119398467619e+00
	9.752665047022002e-01
	0.000000000000000e+00
	-1.048124494575839e-03
101		1.009999999999998e+01
	1.009999999999998e+01
	0.000000000000000e+00
	1.764901132005323e+00
	6.272756311521188e+00
	9.911579707476852e-01
	0.000000000000000e+00
	-1.064695524187330e-03
102		1.019999999999998e+01
	1.019999999999998e+01
	0.000000000000000e+00
	1.781209609837998e+00
	6.311372131069749e+00
	1.007054899470133e+00
	0.000000000000000e+00
	-1.081271972858089e-03
103		1.029999999999998e+01
	1.029999999999998e+01
	0.000000000000000e+00
	1.797517072608558e+00
	6.349967497125134e+00
	1.022957125122915e+00
	0.000000000000000e+00
	-1.097853676164901e-03
104		1.039999999999998e+01
	1.039999999999998e+01
	0.000000000000000e+00
	1.813823550665495e+00
	6.388543021206497e+00
