Note: No compatibility mode selected!


Circuit: a berkeley spice3 compatible circuit

Doing analysis at TEMP = 27.000000 and TNOM = 27.000000

Title: a berkeley spice3 compatible circuit
Date: Tue Apr  8 02:11:48  2025
Plotname: Transient Analysis
Flags: real
No. Variables: 8
No. Points: 0
Variables:
No. of Data Columns : 8

Initial Transient Solution
--------------------------

Node                                   Voltage
----                                   -------
vcc                                         12
1                                            0
base                                   2.07462
coll                                   7.00353
emit                                   1.29396
vin#branch                                   0
vcc#branch                          -0.0013804

        0       time    time
        1       v(vcc)  voltage
        2       v(1)    voltage
        3       v(base) voltage
        4       v(coll) voltage
        5       v(emit) voltage
        6       i(vin)  current
        7       i(vcc)  current
Values:
0               0.000000000000000e+00
        1.200000000000000e+01
        0.000000000000000e+00
        2.074617161619260e+00
        7.003534142229633e+00
        1.293956531382122e+00
        0.000000000000000e+00
        -1.380398920119799e-03
1               1.000000000000000e-07
        1.200000000000000e+01
        6.283184893762573e-04
        2.075245479720855e+00
        7.001071286764583e+00
        1.294594347803038e+00
        -3.877809717778291e-08
        -1.381024138340078e-03
2               2.000000000000000e-07
        1.200000000000000e+01
        1.256636730702326e-03
        2.075873797188779e+00
        6.998692651034442e+00
        1.295210353471941e+00
        -7.734021778560418e-08
        -1.381627761762871e-03
3               4.000000000000001e-07
        1.200000000000000e+01
        2.513271477003727e-03
        2.077130429617029e+00
        6.993935231468861e+00
        1.296442403165195e+00
        -1.544648000617599e-07
        -1.382835046609250e-03
4               8.000000000000002e-07
        1.200000000000000e+01
        5.026527078818863e-03
        2.079643675955285e+00
        6.984420266889161e+00
        1.298906535039724e+00
        -3.087132256496261e-07
        -1.385249648653483e-03
5               1.600000000000000e-06
        1.200000000000000e+01
        1.005292715673065e-02
        2.084670038996477e+00
        6.965389772556420e+00
        1.303834945154102e+00
        -6.172047974928319e-07
        -1.390078998954543e-03
6               3.200000000000001e-06
        1.200000000000000e+01
        2.010483832545758e-02
        2.094721802057653e+00
        6.927328242921541e+00
        1.313691905480118e+00
        -1.234139595851502e-06
        -1.399737847896977e-03
7               6.400000000000001e-06
        1.200000000000000e+01
        4.020154936295321e-02
        2.114817920817333e+00
        6.851216777181925e+00
        1.333402823705041e+00
        -2.467596763366942e-06
        -1.419052647155436e-03
8               1.280000000000000e-05
        1.200000000000000e+01
        8.033810013339424e-02
        2.154952104001408e+00
        6.699150238701480e+00
        1.372784158377943e+00
        -4.931110630934654e-06
        -1.457642725446786e-03
9               2.280000000000001e-05
        1.200000000000000e+01
        1.427671311474490e-01
        2.217374287904056e+00
        6.462476758244240e+00
        1.434076521807847e+00
        -8.763112181675581e-06
        -1.517704011417308e-03
10              3.280000000000000e-05
        1.200000000000000e+01
        2.046327255189627e-01
        2.279229220346818e+00
        6.227776840378993e+00
        1.494857783125963e+00
        -1.256074532207663e-05
        -1.577264928212175e-03
11              4.280000000000000e-05
        1.200000000000000e+01
        2.656907280106526e-01
        2.340272787979325e+00
        5.995996033897923e+00
        1.554883069437851e+00
        -1.630897304227830e-05
        -1.636085468556637e-03
12              5.280000000000000e-05
        1.200000000000000e+01
        3.257001705814321e-01
        2.400264079586189e+00
        5.768067794225648e+00
        1.613910639721094e+00
        -1.999295478771757e-05
        -1.693928694018074e-03
13              6.280000000000001e-05
        1.200000000000000e+01
        3.844242233771807e-01
        2.458966336851713e+00
        5.544909549840418e+00
        1.671702903521599e+00
        -2.359810566066045e-05
        -1.750561734108299e-03
14              7.280000000000001e-05
        1.200000000000000e+01
        4.416311293899813e-01
        2.516147888734713e+00
        5.327419101261529e+00
        1.728027353523300e+00
        -2.711015393952465e-05
        -1.805756700276364e-03
15              8.280000000000001e-05
        1.200000000000000e+01
        4.970951190971508e-01
        2.571583065766163e+00
        5.116471036702551e+00
        1.782657493802261e+00
        -3.051519749774911e-05
        -1.859291595828864e-03
16              9.280000000000001e-05
        1.200000000000000e+01
        5.505973014704015e-01
        2.625053090661289e+00
        4.912913250855102e+00
        1.835373741372272e+00
        -3.379975875272834e-05
        -1.910951199643361e-03
17              1.028000000000000e-04
        1.200000000000000e+01
        6.019265278387285e-01
        2.676346941731286e+00
        4.717563578764965e+00
        1.885964297924763e+00
        -3.695083790589138e-05
        -1.960527920642953e-03
18              1.128000000000000e-04
        1.200000000000000e+01
        6.508802251957485e-01
        2.725262185687218e+00
        4.531206555704214e+00
        1.934225988938837e+00
        -3.995596426964454e-05
        -2.007822620270253e-03
19              1.228000000000000e-04
        1.200000000000000e+01
        6.972651956628108e-01
        2.771605776549387e+00
        4.354590314050621e+00
        1.979965067309687e+00
        -4.280324551686476e-05
        -2.052645400170245e-03
20              1.328000000000000e-04
        1.200000000000000e+01
        7.408983789527588e-01
        2.815194817509273e+00
        4.188423628012920e+00
        2.022997978689435e+00
        -4.548141460603006e-05
        -2.094816352334415e-03
21              1.428000000000000e-04
        1.200000000000000e+01
        7.816075748252524e-01
        2.855857282737334e+00
        4.033373116736082e+00
        2.063152085810759e+00
        -4.797987425764205e-05
        -2.134166269035170e-03
22              1.528000000000000e-04
        1.200000000000000e+01
        8.192321226824456e-01
        2.893432696288019e+00
        3.890060615938550e+00
        2.100266349165741e+00
        -5.028873875900786e-05
        -2.170537309975953e-03
23              1.628000000000000e-04
        1.200000000000000e+01
        8.536235356229667e-01
        2.927772765422669e+00
        3.759060727742172e+00
        2.134191961536827e+00
        -5.239887298191803e-05
        -2.203783624206755e-03
24              1.728000000000000e-04
        1.200000000000000e+01
        8.846460864518816e-01
        2.958741965850886e+00
        3.640898557808119e+00
        2.164792934020861e+00
        -5.430192841249237e-05
        -2.233771924493256e-03
25              1.828000000000000e-04
        1.200000000000000e+01
        9.121773433339238e-01
        2.986218076580677e+00
        3.536047648262834e+00
        2.191946631348107e+00
        -5.599037608661206e-05
        -2.260382011987313e-03
26              1.928000000000000e-04
        1.200000000000000e+01
        9.361086529760148e-01
        3.010092662266577e+00
        3.444928114225048e+00
        2.215544254474036e+00
        -5.745753629593509e-05
        -2.283507249217066e-03
27              2.028000000000000e-04
        1.200000000000000e+01
        9.563455694321727e-01
        3.030271501152125e+00
        3.367904991012916e+00
        2.235491268610294e+00
        -5.869760492682730e-05
        -2.303054979600552e-03
28              2.128000000000000e-04
        1.200000000000000e+01
        9.728082268385126e-01
        3.046674956917824e+00
        3.305286798340234e+00
        2.251707775061059e+00
        -5.970567635671387e-05
        -2.318946891882044e-03
29              2.228000000000000e-04
        1.200000000000000e+01
        9.854316546073247e-01
        3.059238292967053e+00
        3.257324327002743e+00
        2.264128825440204e+00
        -6.047776281015160e-05
        -2.331119328095268e-03
30              2.328000000000000e-04
        1.200000000000000e+01
        9.941660338363008e-01
        3.067911927909584e+00
        3.224209652716527e+00
        2.272704677061904e+00
        -6.101081007869880e-05
        -2.339523533870513e-03
31              2.428000000000000e-04
        1.200000000000000e+01
        9.989768939209825e-01
        3.072661631234440e+00
        3.206075380905347e+00
        2.277400988521186e+00
        -6.130270957349637e-05
        -2.344125850122182e-03
32              2.528000000000000e-04
        1.200000000000000e+01
        9.998452485944885e-01
        3.073468658399841e+00
        3.202994125352206e+00
        2.278198954709899e+00
        -6.135230663684155e-05
        -2.344907845376974e-03
33              2.628000000000000e-04
        1.200000000000000e+01
        9.967676708576361e-01
        3.070329824807122e+00
        3.214978222728184e+00
        2.275095380746677e+00
        -6.115940509676676e-05
        -2.341866388231882e-03
34              2.728000000000001e-04
        1.200000000000000e+01
        9.897563065037408e-01
        3.063257518366656e+00
        3.241979684098520e+00
        2.268102694535131e+00
        -6.072476804508398e-05
        -2.335013659662867e-03
35              2.828000000000001e-04
        1.200000000000000e+01
        9.788388261847201e-01
        3.052279650606200e+00
        3.283890383600198e+00
        2.257248897901714e+00
        -6.005011482734801e-05
        -2.324377105134913e-03
36              2.928000000000001e-04
        1.200000000000000e+01
        9.640583162076707e-01
        3.037439546514613e+00
        3.340542483553314e+00
        2.242577456502147e+00
        -5.913811424651527e-05
        -2.309999326700671e-03
37              3.028000000000002e-04
        1.200000000000000e+01
        9.454731084928992e-01
        3.018795773555687e+00
        3.411709094373675e+00
        2.224147128921769e+00
        -5.799237406378666e-05
        -2.291937915501963e-03
38              3.128000000000002e-04
        1.200000000000000e+01
        9.231565503644822e-01
        2.996421910526867e+00
        3.497105166728477e+00
        2.202031735629406e+00
        -5.661742674156756e-05
        -2.270265225323327e-03
39              3.228000000000002e-04
        1.200000000000000e+01
        8.971967150818869e-01
        2.970406257175107e+00
        3.596388612506365e+00
        2.176319868675241e+00
        -5.501871158575256e-05
        -2.245068088067643e-03
40              3.328000000000002e-04
        1.200000000000000e+01
        8.676960542550533e-01
        2.940851485715840e+00
        3.709161650283581e+00
        2.147114543249226e+00
        -5.320255327934120e-05
        -2.216447472249616e-03
41              3.428000000000003e-04
        1.200000000000000e+01
        8.347709935146946e-01
        2.907874235630371e+00
        3.834972370131346e+00
        2.114532792436715e+00
        -5.117613693972345e-05
        -2.184518085815147e-03
42              3.528000000000003e-04
        1.200000000000000e+01
        7.985514730335239e-01
        2.871604653340841e+00
        3.973316511773366e+00
        2.078705206720605e+00
        -4.894747977690628e-05
        -2.149407924806754e-03
43              3.628000000000003e-04
        1.200000000000000e+01
        7.591804347117554e-01
        2.832185878579455e+00
        4.123639449332236e+00
        2.039775419983188e+00
        -4.652539945659839e-05
        -2.111257769590555e-03
44              3.728000000000003e-04
        1.200000000000000e+01
        7.168132580507283e-01
        2.789773479479034e+00
        4.285338375144154e+00
        1.997899543954218e+00
        -4.391947933068963e-05
        -2.070220630552863e-03
45              3.828000000000004e-04
        1.200000000000000e+01
        6.716171469410024e-01
        2.744534838614335e+00
        4.457764674424869e+00
        1.953245553233078e+00
        -4.114003061594929e-05
        -2.026461145351070e-03
46              3.928000000000004e-04
        1.200000000000000e+01
        6.237704697849883e-01
        2.696648492417161e+00
        4.640226481927451e+00
        1.905992623180224e+00
        -3.819805170479640e-05
        -1.980154929966226e-03
47              4.028000000000004e-04
        1.200000000000000e+01
        5.734620555583535e-01
        2.646303426572286e+00
        4.831991411141737e+00
        1.856330423124309e+00
        -3.510518477511937e-05
        -1.931487885954345e-03